Time [s],Channel 2,Channel 13
0.000000000,0,0
40.290236000,1,0
40.290237000,0,0
40.290238000,1,0
40.290989000,0,0
40.290991000,1,0
40.290992000,0,0
40.290994000,1,0
40.290995000,0,0
40.374133000,1,0
40.376027000,0,0
40.377917000,1,0
40.379808000,0,0
40.379809000,1,0
40.379812000,0,0
40.381701000,1,0
40.383596000,0,0
40.385484000,1,0
40.387375000,0,0
40.387376000,1,0
40.387379000,0,0
40.389267000,1,0
40.391162000,0,0
40.393051000,1,0
40.394946000,0,0
40.396833000,1,0
40.398727000,0,0
40.400616000,1,0
40.402512000,0,0
40.404400000,1,0
40.406297000,0,0
40.408184000,1,0
40.410079000,0,0
40.411967000,1,0
40.413863000,0,0
40.415751000,1,0
40.417642000,0,0
40.417643000,1,0
40.417646000,0,0
40.419534000,1,0
40.421429000,0,0
40.423318000,1,0
40.425213000,0,0
40.427102000,1,0
40.428993000,0,0
40.428994000,1,0
40.428997000,0,0
40.430886000,1,0
40.432781000,0,0
40.434670000,1,0
40.436565000,0,0
40.438453000,1,0
40.440348000,0,0
40.442235000,1,0
40.444130000,0,0
40.446018000,1,0
40.447915000,0,0
40.449802000,1,0
40.451699000,0,0
40.453586000,1,0
40.455483000,0,0
40.457370000,1,0
40.459266000,0,0
40.461153000,1,0
40.463049000,0,0
40.464937000,1,0
40.466832000,0,0
40.468721000,1,0
40.470616000,0,0
40.472505000,1,0
40.474400000,0,0
40.476289000,1,0
40.478184000,0,0
40.480073000,1,0
40.481967000,0,0
40.483857000,1,0
40.485751000,0,0
40.487639000,1,0
40.489534000,0,0
40.491422000,1,0
40.493317000,0,0
40.495205000,1,0
40.497097000,0,0
40.497098000,1,0
40.497101000,0,0
40.498989000,1,0
40.500885000,0,0
40.502773000,1,0
40.504669000,0,0
40.506557000,1,0
40.508448000,0,0
40.508449000,1,0
40.508452000,0,0
40.510340000,1,0
40.512235000,0,0
40.514122000,1,0
40.516019000,0,0
40.517906000,1,0
40.519801000,0,0
40.521690000,1,0
40.523585000,0,0
40.525474000,1,0
40.527369000,0,0
40.529258000,1,0
40.531153000,0,0
40.533042000,1,0
40.534937000,0,0
40.536826000,1,0
40.538721000,0,0
40.540608000,1,0
40.542503000,0,0
40.544391000,1,0
40.546287000,0,0
40.548175000,1,0
40.550071000,0,0
40.551959000,1,0
40.553856000,0,0
40.555744000,1,0
40.557638000,0,0
40.559526000,1,0
40.561421000,0,0
40.563309000,1,0
40.565205000,0,0
40.567093000,1,0
40.568988000,0,0
40.570877000,1,0
40.572772000,0,0
40.574661000,1,0
40.576556000,0,0
40.578446000,1,0
40.580340000,0,0
40.582228000,1,0
40.584124000,0,0
40.586012000,1,0
40.587903000,0,0
40.587904000,1,0
40.587907000,0,0
40.589795000,1,0
40.591686000,0,0
40.591687000,1,0
40.591690000,0,0
40.593578000,1,0
40.595474000,0,0
40.597362000,1,0
40.599259000,0,0
40.601146000,1,0
40.603038000,0,0
40.603039000,1,0
40.603042000,0,0
40.604930000,1,0
40.606826000,0,0
40.608714000,1,0
40.610609000,0,0
40.612496000,1,0
40.614392000,0,0
40.616280000,1,0
40.618175000,0,0
40.620064000,1,0
40.621959000,0,0
40.623849000,1,0
40.625743000,0,0
40.627633000,1,0
40.629527000,0,0
40.631415000,1,0
40.633310000,0,0
40.635199000,1,0
40.637094000,0,0
40.638982000,1,0
40.640877000,0,0
40.642765000,1,0
40.644661000,0,0
40.646549000,1,0
40.648445000,0,0
40.650333000,1,0
40.652229000,0,0
40.654117000,1,0
40.656013000,0,0
40.657901000,1,0
40.659796000,0,0
40.661683000,1,0
40.663578000,0,0
40.665466000,1,0
40.667361000,0,0
40.669250000,1,0
40.671145000,0,0
40.673034000,1,0
40.674930000,0,0
40.676818000,1,0
40.678714000,0,0
40.680601000,1,0
40.682496000,0,0
40.684385000,1,0
40.686280000,0,0
40.688169000,1,0
40.690064000,0,0
40.691951000,1,0
40.693848000,0,0
40.695735000,1,0
40.697631000,0,0
40.699519000,1,0
40.701416000,0,0
40.703303000,1,0
40.705200000,0,0
40.707087000,1,0
40.708983000,0,0
40.710870000,1,0
40.712762000,0,0
40.714653000,1,0
40.716545000,0,0
41.934139000,0,1
41.936035000,0,0
41.937932000,0,1
41.939828000,0,0
41.941725000,0,1
41.943621000,0,0
41.945518000,0,1
41.947414000,0,0
41.949310000,0,1
41.951206000,0,0
41.953102000,0,1
41.954997000,0,0
41.956893000,0,1
41.958789000,0,0
41.960685000,0,1
41.962582000,0,0
41.964478000,0,1
41.966375000,0,0
41.968271000,0,1
41.970168000,0,0
41.972064000,0,1
41.973960000,0,0
41.975856000,0,1
41.977753000,0,0
41.979648000,0,1
41.981545000,0,0
41.983441000,0,1
41.985337000,0,0
41.987234000,0,1
41.989130000,0,0
41.991027000,0,1
41.992923000,0,0
41.994820000,0,1
41.996716000,0,0
41.998612000,0,1
42.000508000,0,0
42.002404000,0,1
42.004300000,0,0
42.006196000,0,1
42.008091000,0,0
42.009987000,0,1
42.011883000,0,0
42.013779000,0,1
42.015676000,0,0
42.017572000,0,1
42.019469000,0,0
42.021365000,0,1
42.023262000,0,0
42.025158000,0,1
42.027054000,0,0
42.028949000,0,1
42.030846000,0,0
42.032742000,0,1
42.034639000,0,0
42.036535000,0,1
42.038431000,0,0
42.040328000,0,1
42.042223000,0,0
42.044121000,0,1
42.046016000,0,0
42.047914000,0,1
42.049809000,0,0
42.051706000,0,1
42.053601000,0,0
42.055497000,0,1
42.057393000,0,0
42.059289000,0,1
42.061185000,0,0
42.063081000,0,1
42.064976000,0,0
42.066872000,0,1
42.068770000,0,0
42.070665000,0,1
42.072562000,0,0
42.074458000,0,1
42.076356000,0,0
42.078251000,0,1
42.080147000,0,0
42.082043000,0,1
42.083940000,0,0
42.085835000,0,1
42.087733000,0,0
42.089629000,0,1
42.091524000,0,0
42.093421000,0,1
42.095317000,0,0
42.097214000,0,1
42.099110000,0,0
42.101007000,0,1
42.102903000,0,0
42.104799000,0,1
42.106695000,0,0
42.108591000,0,1
42.110487000,0,0
42.112382000,0,1
42.114278000,0,0
42.116174000,0,1
42.118070000,0,0
42.119966000,0,1
42.121863000,0,0
42.123759000,0,1
42.125656000,0,0
42.127552000,0,1
42.129449000,0,0
42.131345000,0,1
42.133241000,0,0
42.135136000,0,1
42.137033000,0,0
42.138929000,0,1
42.140826000,0,0
42.142722000,0,1
42.144618000,0,0
42.146514000,0,1
42.148410000,0,0
42.150308000,0,1
42.152203000,0,0
42.154100000,0,1
42.155996000,0,0
42.157892000,0,1
42.159788000,0,0
42.161684000,0,1
42.163580000,0,0
42.165475000,0,1
42.167371000,0,0
42.169267000,0,1
42.171162000,0,0
42.173058000,0,1
42.174955000,0,0
42.176851000,0,1
42.178748000,0,0
42.180644000,0,1
42.182541000,0,0
42.184437000,0,1
42.186333000,0,0
42.188229000,0,1
42.190126000,0,0
42.192022000,0,1
42.193919000,0,0
42.195815000,0,1
42.197710000,0,0
42.199607000,0,1
42.201503000,0,0
42.203400000,0,1
42.205296000,0,0
42.207193000,0,1
42.209089000,0,0
42.210985000,0,1
42.212880000,0,0
42.214776000,0,1
42.216672000,0,0
42.218567000,0,1
42.220463000,0,0
42.222359000,0,1
42.224254000,0,0
42.226150000,0,1
42.228047000,0,0
42.229942000,0,1
42.231839000,0,0
42.233735000,0,1
42.235632000,0,0
42.237528000,0,1
42.239424000,0,0
42.241319000,0,1
42.243216000,0,0
42.245112000,0,1
42.247009000,0,0
42.248905000,0,1
42.250800000,0,0
42.252697000,0,1
42.254593000,0,0
42.256490000,0,1
42.258386000,0,0
42.260283000,0,1
42.262178000,0,0
42.264075000,0,1
42.265970000,0,0
42.267866000,0,1
42.269762000,0,0
42.271657000,0,1
42.273553000,0,0
93.281886000,0,1
93.283769000,0,0
93.285653000,0,1
93.287536000,0,0
93.289421000,0,1
93.291304000,0,0
93.293187000,0,1
93.295070000,0,0
93.296954000,0,1
93.298837000,0,0
93.300720000,0,1
93.302603000,0,0
93.304486000,0,1
93.306370000,0,0
93.308253000,0,1
93.310138000,0,0
93.312021000,0,1
93.313905000,0,0
93.315788000,0,1
93.317673000,0,0
93.319555000,0,1
93.321438000,0,0
93.323321000,0,1
93.325204000,0,0
93.327087000,0,1
93.328970000,0,0
93.330855000,0,1
93.332738000,0,0
93.334622000,0,1
93.336505000,0,0
93.338390000,0,1
93.340273000,0,0
93.342156000,0,1
93.344039000,0,0
93.345922000,0,1
93.347805000,0,0
93.349689000,0,1
93.351572000,0,0
93.353455000,0,1
93.355339000,0,0
93.357222000,0,1
93.359106000,0,0
93.360989000,0,1
93.362874000,0,0
93.364757000,0,1
93.366640000,0,0
93.368523000,0,1
93.370407000,0,0
93.372290000,0,1
93.374173000,0,0
93.376056000,0,1
93.377939000,0,0
93.379823000,0,1
93.381706000,0,0
93.383591000,0,1
93.385474000,0,0
93.387358000,0,1
93.389241000,0,0
93.391125000,0,1
93.393008000,0,0
93.394891000,0,1
93.396774000,0,0
93.398657000,0,1
93.400540000,0,0
93.402423000,0,1
93.404307000,0,0
93.406190000,0,1
93.408075000,0,0
93.409958000,0,1
93.411842000,0,0
93.413725000,0,1
93.415608000,0,0
93.417491000,0,1
93.419374000,0,0
93.421257000,0,1
93.423141000,0,0
93.425024000,0,1
93.426907000,0,0
93.428791000,0,1
93.430674000,0,0
93.432559000,0,1
93.434442000,0,0
93.436326000,0,1
93.438209000,0,0
93.440093000,0,1
93.441977000,0,0
93.443861000,0,1
93.445744000,0,0
93.447627000,0,1
93.449510000,0,0
93.451393000,0,1
93.453277000,0,0
93.455160000,0,1
93.457044000,0,0
93.458927000,0,1
93.460811000,0,0
93.462694000,0,1
93.464577000,0,0
93.466460000,0,1
93.468343000,0,0
93.470226000,0,1
93.472110000,0,0
93.473993000,0,1
93.475876000,0,0
93.477760000,0,1
93.479643000,0,0
93.481527000,0,1
93.483410000,0,0
93.485293000,0,1
93.487176000,0,0
93.489058000,0,1
93.490941000,0,0
93.492826000,0,1
93.494708000,0,0
93.496592000,0,1
93.498475000,0,0
93.500358000,0,1
93.502243000,0,0
93.504125000,0,1
93.506009000,0,0
93.507892000,0,1
93.509775000,0,0
93.511658000,0,1
93.513542000,0,0
93.515425000,0,1
93.517308000,0,0
93.519191000,0,1
93.521074000,0,0
93.522957000,0,1
93.524840000,0,0
93.526724000,0,1
93.528607000,0,0
93.530491000,0,1
93.532374000,0,0
93.534258000,0,1
93.536141000,0,0
93.538023000,0,1
93.539906000,0,0
93.541789000,0,1
93.543672000,0,0
93.545556000,0,1
93.547439000,0,0
93.549322000,0,1
93.551206000,0,0
93.553089000,0,1
93.554973000,0,0
93.556856000,0,1
93.558739000,0,0
93.560622000,0,1
93.562505000,0,0
93.564388000,0,1
93.566272000,0,0
93.568155000,0,1
93.570038000,0,0
93.571922000,0,1
93.573805000,0,0
93.575689000,0,1
93.577572000,0,0
93.579456000,0,1
93.581339000,0,0
93.583222000,0,1
93.585105000,0,0
93.586989000,0,1
93.588872000,0,0
93.590754000,0,1
93.592637000,0,0
93.594520000,0,1
93.596404000,0,0
93.598287000,0,1
93.600171000,0,0
93.602054000,0,1
93.603939000,0,0
93.605822000,0,1
93.607706000,0,0
93.609589000,0,1
93.611471000,0,0
93.613354000,0,1
93.615237000,0,0
93.617120000,0,1
93.619003000,0,0
93.620887000,0,1
93.622709000,0,0
144.629163000,0,1
144.631040000,0,0
144.632919000,0,1
144.634797000,0,0
144.636676000,0,1
144.638554000,0,0
144.640432000,0,1
144.642310000,0,0
144.644187000,0,1
144.646065000,0,0
144.647943000,0,1
144.649821000,0,0
144.651699000,0,1
144.653578000,0,0
144.655456000,0,1
144.657335000,0,0
144.659212000,0,1
144.661091000,0,0
144.662969000,0,1
144.664847000,0,0
144.666725000,0,1
144.668603000,0,0
144.670480000,0,1
144.672358000,0,0
144.674236000,0,1
144.676114000,0,0
144.677993000,0,1
144.679871000,0,0
144.681750000,0,1
144.683627000,0,0
144.685505000,0,1
144.687383000,0,0
144.689260000,0,1
144.691138000,0,0
144.693016000,0,1
144.694894000,0,0
144.696771000,0,1
144.698650000,0,0
144.700528000,0,1
144.702407000,0,0
144.704285000,0,1
144.706164000,0,0
144.708042000,0,1
144.709921000,0,0
144.711798000,0,1
144.713678000,0,0
144.715555000,0,1
144.717434000,0,0
144.719312000,0,1
144.721189000,0,0
144.723068000,0,1
144.724946000,0,0
144.726825000,0,1
144.728703000,0,0
144.730582000,0,1
144.732459000,0,0
144.734337000,0,1
144.736215000,0,0
144.738092000,0,1
144.739970000,0,0
144.741848000,0,1
144.743725000,0,0
144.745603000,0,1
144.747482000,0,0
144.749359000,0,1
144.751238000,0,0
144.753116000,0,1
144.754994000,0,0
144.756871000,0,1
144.758749000,0,0
144.760627000,0,1
144.762504000,0,0
144.764382000,0,1
144.766260000,0,0
144.768137000,0,1
144.770015000,0,0
144.771894000,0,1
144.773772000,0,0
144.775651000,0,1
144.777528000,0,0
144.779406000,0,1
144.781284000,0,0
144.783161000,0,1
144.785039000,0,0
144.786917000,0,1
144.788794000,0,0
144.790672000,0,1
144.792551000,0,0
144.794429000,0,1
144.796308000,0,0
144.798186000,0,1
144.800065000,0,0
144.801942000,0,1
144.803821000,0,0
144.805699000,0,1
144.807578000,0,0
144.809456000,0,1
144.811335000,0,0
144.813212000,0,1
144.815090000,0,0
144.816969000,0,1
144.818847000,0,0
144.820726000,0,1
144.822604000,0,0
144.824483000,0,1
144.826360000,0,0
144.828238000,0,1
144.830116000,0,0
144.831994000,0,1
144.833871000,0,0
144.835749000,0,1
144.837627000,0,0
144.839505000,0,1
144.841384000,0,0
144.843261000,0,1
144.845140000,0,0
144.847018000,0,1
144.848896000,0,0
144.850774000,0,1
144.852651000,0,0
144.854529000,0,1
144.856407000,0,0
144.858285000,0,1
144.860163000,0,0
144.862042000,0,1
144.863919000,0,0
144.865798000,0,1
144.867676000,0,0
144.869555000,0,1
144.871433000,0,0
144.873310000,0,1
144.875188000,0,0
144.877066000,0,1
144.878944000,0,0
144.880821000,0,1
144.882699000,0,0
144.884577000,0,1
144.886456000,0,0
144.888333000,0,1
144.890213000,0,0
144.892090000,0,1
144.893969000,0,0
144.895847000,0,1
144.897726000,0,0
144.899604000,0,1
144.901483000,0,0
144.903360000,0,1
144.905239000,0,0
144.907117000,0,1
144.908995000,0,0
144.910874000,0,1
144.912752000,0,0
144.914631000,0,1
144.916508000,0,0
144.918388000,0,1
144.920265000,0,0
144.922143000,0,1
144.924021000,0,0
144.925899000,0,1
144.927777000,0,0
144.929655000,0,1
144.931532000,0,0
144.933410000,0,1
144.935289000,0,0
144.937167000,0,1
144.939047000,0,0
144.940924000,0,1
144.942802000,0,0
144.944680000,0,1
144.946558000,0,0
144.948435000,0,1
144.950313000,0,0
144.952191000,0,1
144.954069000,0,0
144.955948000,0,1
144.957826000,0,0
144.959704000,0,1
144.961582000,0,0
144.963461000,0,1
144.965339000,0,0
144.967217000,0,1
144.969094000,0,0
144.970972000,0,1
144.971667000,0,0
171.548264000,1,0
171.548265000,0,0
171.548267000,1,0
171.549035000,0,0
171.632170000,1,0
171.634049000,0,0
171.635923000,1,0
171.637802000,0,0
171.639675000,1,0
171.641554000,0,0
171.643428000,1,0
171.645307000,0,0
171.647179000,1,0
171.649058000,0,0
171.650930000,1,0
171.652805000,0,0
171.652806000,1,0
171.652809000,0,0
171.654681000,1,0
171.656561000,0,0
171.658433000,1,0
171.660310000,0,0
171.660311000,1,0
171.660314000,0,0
171.662186000,1,0
171.664065000,0,0
171.665937000,1,0
171.667818000,0,0
171.669690000,1,0
171.671565000,0,0
171.671566000,1,0
171.671569000,0,0
171.673441000,1,0
171.675320000,0,0
171.677193000,1,0
171.679072000,0,0
171.680946000,1,0
171.682825000,0,0
171.684698000,1,0
171.686577000,0,0
171.688451000,1,0
171.690330000,0,0
171.692202000,1,0
171.694081000,0,0
171.695953000,1,0
171.697832000,0,0
171.699704000,1,0
171.701581000,0,0
171.701582000,1,0
171.701585000,0,0
171.703457000,1,0
171.705337000,0,0
171.707209000,1,0
171.709088000,0,0
171.710960000,1,0
171.712837000,0,0
171.712838000,1,0
171.712841000,0,0
171.714713000,1,0
171.716592000,0,0
171.718464000,1,0
171.720343000,0,0
171.722217000,1,0
171.724096000,0,0
171.725969000,1,0
171.727848000,0,0
171.729720000,1,0
171.731599000,0,0
171.733472000,1,0
171.735350000,0,0
171.737224000,1,0
171.739103000,0,0
171.740975000,1,0
171.742856000,0,0
171.744728000,1,0
171.746608000,0,0
171.748480000,1,0
171.750357000,0,0
171.750358000,1,0
171.750361000,0,0
171.752233000,1,0
171.754112000,0,0
171.755984000,1,0
171.757864000,0,0
171.759736000,1,0
171.761615000,0,0
171.763487000,1,0
171.765366000,0,0
171.767240000,1,0
171.769119000,0,0
171.770993000,1,0
171.772872000,0,0
171.774744000,1,0
171.776623000,0,0
171.778495000,1,0
171.780375000,0,0
171.782248000,1,0
171.784127000,0,0
171.785999000,1,0
171.787879000,0,0
171.789751000,1,0
171.791632000,0,0
171.793504000,1,0
171.795384000,0,0
171.797256000,1,0
171.799135000,0,0
171.801007000,1,0
171.802887000,0,0
171.804760000,1,0
171.806638000,0,0
171.808512000,1,0
171.810391000,0,0
171.812265000,1,0
171.814144000,0,0
171.816017000,1,0
171.817896000,0,0
171.819768000,1,0
171.821647000,0,0
171.823519000,1,0
171.825399000,0,0
171.827272000,1,0
171.829147000,0,0
171.829148000,1,0
171.829151000,0,0
171.831023000,1,0
171.832903000,0,0
171.834776000,1,0
171.836656000,0,0
171.838528000,1,0
171.840407000,0,0
171.842280000,1,0
171.844159000,0,0
171.846031000,1,0
171.847911000,0,0
171.849783000,1,0
171.851663000,0,0
171.853536000,1,0
171.855415000,0,0
171.857288000,1,0
171.859167000,0,0
171.861041000,1,0
171.862920000,0,0
171.864792000,1,0
171.866671000,0,0
171.868544000,1,0
171.870423000,0,0
171.872296000,1,0
171.874175000,0,0
171.876047000,1,0
171.877928000,0,0
171.879800000,1,0
171.881680000,0,0
171.883553000,1,0
171.885432000,0,0
171.887304000,1,0
171.889184000,0,0
171.891056000,1,0
171.892936000,0,0
171.894808000,1,0
171.896687000,0,0
171.898561000,1,0
171.900436000,0,0
171.900437000,1,0
171.900440000,0,0
171.902313000,1,0
171.904192000,0,0
171.906066000,1,0
171.907945000,0,0
171.909817000,1,0
171.911695000,0,0
171.913568000,1,0
171.915447000,0,0
171.917320000,1,0
171.919196000,0,0
171.919197000,1,0
171.919200000,0,0
171.921072000,1,0
171.922952000,0,0
171.924825000,1,0
171.926701000,0,0
171.926702000,1,0
171.926705000,0,0
171.928577000,1,0
171.930457000,0,0
171.932329000,1,0
171.934208000,0,0
171.936080000,1,0
171.937961000,0,0
171.939833000,1,0
171.941712000,0,0
171.943586000,1,0
171.945465000,0,0
171.947338000,1,0
171.949218000,0,0
171.951091000,1,0
171.952970000,0,0
171.954842000,1,0
171.956722000,0,0
171.958593000,1,0
171.960472000,0,0
171.962344000,1,0
171.964225000,0,0
171.966097000,1,0
171.967978000,0,0
171.969850000,1,0
171.971726000,0,0
171.973602000,1,0
171.975301000,0,0
196.382564000,0,1
196.384454000,0,0
196.386345000,0,1
196.388234000,0,0
196.390125000,0,1
196.392015000,0,0
196.393904000,0,1
196.395794000,0,0
196.397684000,0,1
196.399574000,0,0
196.401465000,0,1
196.403354000,0,0
196.405244000,0,1
196.407135000,0,0
196.409024000,0,1
196.410915000,0,0
196.412805000,0,1
196.414695000,0,0
196.416585000,0,1
196.418474000,0,0
196.420364000,0,1
196.422255000,0,0
196.424144000,0,1
196.426034000,0,0
196.427923000,0,1
196.429813000,0,0
196.431702000,0,1
196.433592000,0,0
196.435483000,0,1
196.437372000,0,0
196.439263000,0,1
196.441153000,0,0
196.443043000,0,1
196.444932000,0,0
196.446823000,0,1
196.448712000,0,0
196.450602000,0,1
196.452491000,0,0
196.454381000,0,1
196.456270000,0,0
196.458160000,0,1
196.460051000,0,0
196.461940000,0,1
196.463831000,0,0
196.465721000,0,1
196.467611000,0,0
196.469501000,0,1
196.471392000,0,0
196.473281000,0,1
196.475171000,0,0
196.477060000,0,1
196.478950000,0,0
196.480839000,0,1
196.482729000,0,0
196.484620000,0,1
196.486509000,0,0
196.488400000,0,1
196.490290000,0,0
196.492180000,0,1
196.494070000,0,0
196.495959000,0,1
196.497849000,0,0
196.499738000,0,1
196.501628000,0,0
196.503518000,0,1
196.505407000,0,0
196.507297000,0,1
196.509187000,0,0
196.511077000,0,1
196.512968000,0,0
196.514857000,0,1
196.516748000,0,0
196.518638000,0,1
196.520527000,0,0
196.522417000,0,1
196.524306000,0,0
196.526196000,0,1
196.528086000,0,0
196.529976000,0,1
196.531865000,0,0
196.533756000,0,1
196.535646000,0,0
196.537537000,0,1
196.539426000,0,0
196.541316000,0,1
196.543206000,0,0
196.545095000,0,1
196.546985000,0,0
196.548874000,0,1
196.550764000,0,0
196.552654000,0,1
196.554544000,0,0
196.556433000,0,1
196.558323000,0,0
196.560212000,0,1
196.562103000,0,0
196.563992000,0,1
196.565883000,0,0
196.567773000,0,1
196.569662000,0,0
196.571551000,0,1
196.573441000,0,0
196.575331000,0,1
196.577222000,0,0
196.579111000,0,1
196.581001000,0,0
196.582890000,0,1
196.584780000,0,0
196.586670000,0,1
196.588560000,0,0
196.590451000,0,1
196.592341000,0,0
196.594231000,0,1
196.596121000,0,0
196.598012000,0,1
196.599901000,0,0
196.601792000,0,1
196.603681000,0,0
196.605571000,0,1
196.607460000,0,0
196.609350000,0,1
196.611240000,0,0
196.613130000,0,1
196.615020000,0,0
196.616910000,0,1
196.618801000,0,0
196.620690000,0,1
196.622581000,0,0
196.624470000,0,1
196.626361000,0,0
196.628250000,0,1
196.630139000,0,0
196.632029000,0,1
196.633918000,0,0
196.635809000,0,1
196.637698000,0,0
196.639589000,0,1
196.641478000,0,0
196.643369000,0,1
196.645259000,0,0
196.647149000,0,1
196.649039000,0,0
196.650929000,0,1
196.652819000,0,0
196.654708000,0,1
196.656598000,0,0
196.658487000,0,1
196.660378000,0,0
196.662267000,0,1
196.664158000,0,0
196.666047000,0,1
196.667938000,0,0
196.669827000,0,1
196.671718000,0,0
196.673607000,0,1
196.675497000,0,0
196.677386000,0,1
196.679276000,0,0
196.681165000,0,1
196.683056000,0,0
196.684945000,0,1
196.686835000,0,0
196.688725000,0,1
196.690615000,0,0
196.692506000,0,1
196.694395000,0,0
196.696286000,0,1
196.698176000,0,0
196.700065000,0,1
196.701955000,0,0
196.703844000,0,1
196.705734000,0,0
196.707624000,0,1
196.709514000,0,0
196.711403000,0,1
196.713294000,0,0
196.715184000,0,1
196.717074000,0,0
